Circuit: * C:\Users\usuario\137\Facultad\circuitos 2\TDCE\Etapa lineal.asc

Direct Newton iteration failed to find .op point.  (Use ".option noopiter" to skip.)
Starting Gmin stepping
Gmin = 10
Gmin = 1.07374
Gmin = 0.115292
Gmin = 0.0123794
Gmin = 0.00132923
Gmin = 0.000142725
Gmin = 1.5325e-005
Gmin = 1.6455e-006
Gmin = 1.76685e-007
Gmin = 1.89714e-008
Gmin = 2.03704e-009
Gmin = 2.18725e-010
Gmin = 2.34854e-011
Gmin = 2.52173e-012
Gmin = 2.70769e-013
Gmin = 0
Gmin stepping succeeded in finding the operating point.

Semiconductor Device Operating Points:
                        --- Bipolar Transistors ---
Name:       q8          q5          q6          q3          q11
Model:    bc557c      bc557b      bc557b      2sb688      bc547b
Ib:      -5.03e-04   -6.71e-13    4.72e-12   -2.45e-02    4.88e-04
Ic:      -8.66e-02   -1.07e-11   -1.88e-11   -1.79e+00    8.64e-02
Vbe:     -8.07e-01   -1.47e-01   -1.47e-01   -7.96e-01    8.08e-01
Vbc:     -5.51e-01    0.00e+00    5.10e+00    4.64e+00   -1.29e+00
Vce:     -2.56e-01   -1.47e-01   -5.25e+00   -5.44e+00    2.10e+00
BetaDC:   1.72e+02    1.60e+01   -3.98e+00    7.32e+01    1.77e+02
Gm:       2.11e+00    4.11e-10    5.13e-10    6.94e+01    2.38e+00
Rpi:      5.90e+01    6.67e+10    6.67e+10    1.06e+00    5.34e+01
Rx:       1.00e+00    1.00e+00    1.00e+00    0.00e+00    1.00e+00
Ro:       5.42e+01    5.06e+11    1.95e+12    5.83e+01    7.24e+02
Cbe:      4.91e-09    1.37e-11    1.37e-11    1.33e-07    8.99e-09
Cbc:      1.07e-11    6.79e-12    1.67e-12    2.50e-12    1.53e-12
Cjs:      0.00e+00    0.00e+00    0.00e+00    2.00e-12    0.00e+00
BetaAC:   1.25e+02    2.74e+01    3.42e+01    7.32e+01    1.27e+02
Cbx:      6.34e-12    4.01e-12    9.88e-13    0.00e+00    9.39e-13
Ft:       6.83e+07    2.67e+00    5.00e+00    8.27e+07    4.21e+07

Name:       q2          q10         q9          q7          q4
Model:    bc547b      bc547c      bc547c      bc547c      bc547c
Ib:       9.49e-05    1.11e-06    1.11e-06    2.79e-07   -7.64e-12
Ic:       2.45e-02    5.04e-04    5.04e-04    1.29e-04    6.68e-12
Vbe:      7.36e-01    6.04e-01    6.04e-01    5.67e-01   -9.56e-01
Vbc:     -3.90e+00    0.00e+00   -1.56e-01   -1.30e+00   -6.65e+00
Vce:      4.64e+00    6.04e-01    7.59e-01    1.87e+00    5.70e+00
BetaDC:   2.58e+02    4.53e+02    4.55e+02    4.64e+02   -8.75e-01
Gm:       8.17e-01    1.92e-02    1.92e-02    4.94e-03    2.56e-28
Rpi:      2.75e+02    2.36e+04    2.36e+04    9.41e+04    1.00e+12
Rx:       1.00e+00    1.00e+00    1.00e+00    1.00e+00    1.00e+00
Ro:       2.67e+03    1.04e+05    1.05e+05    4.17e+05    8.34e+30
Cbe:      5.08e-10    3.98e-11    3.98e-11    3.09e-11    8.77e-12
Cbc:      1.15e-12    2.74e-12    2.33e-12    1.56e-12    1.02e-12
Cjs:      0.00e+00    0.00e+00    0.00e+00    0.00e+00    0.00e+00
BetaAC:   2.25e+02    4.53e+02    4.54e+02    4.65e+02    2.56e-16
Cbx:      7.04e-13    1.68e-12    1.43e-12    9.60e-13    6.29e-13
Ft:       2.55e+08    6.91e+07    7.02e+07    2.35e+07    1.53e-02

Name:       q1
Model:    bc547c
Ib:       1.11e-06
Ic:       5.03e-04
Vbe:      6.04e-01
Vbc:      1.04e-02
Vce:      5.93e-01
BetaDC:   4.53e+02
Gm:       1.92e-02
Rpi:      2.36e+04
Rx:       1.00e+00
Ro:       1.04e+05
Cbe:      3.98e-11
Cbc:      2.78e-12
Cjs:      0.00e+00
BetaAC:   4.52e+02
Cbx:      1.71e-12
Ft:       6.89e+07



Date: Fri Mar 28 21:51:52 2025
Total elapsed time: 1.537 seconds.

tnom = 27
temp = 27
method = trap
totiter = 663
traniter = 0
tranpoints = 0
accept = 0
rejected = 0
matrix size = 50
fillins = 59
solver = Normal
Matrix Compiler1: 6.49 KB object code size
Matrix Compiler2: 5.56 KB object code size  0.6/0.7/[0.4]

