Circuit: * C:\Users\usuario\137\Facultad\circuitos 2\Proyecto integrador\Checkpoint 1\6 Etapa lineal\Etapa lineal.asc

Direct Newton iteration for .op point succeeded.
Semiconductor Device Operating Points:
                        --- Bipolar Transistors ---
Name:       q7          q5          q6          q3          q2
Model:    bc557c      bc557c      bc557c      d45h11      2n3019
Ib:      -4.78e-06   -4.44e-06   -3.94e-06   -2.37e-02    1.22e-04
Ic:      -3.60e-06   -1.78e-03   -1.78e-03   -1.48e+00    2.37e-02
Vbe:     -5.43e-01   -6.35e-01   -6.34e-01   -5.64e-01    7.30e-01
Vbc:     -5.37e-01   -4.65e-01    5.43e-01    1.23e+00   -4.96e-01
Vce:     -5.70e-03   -1.70e-01   -1.18e+00   -1.79e+00    1.23e+00
BetaDC:   7.53e-01    4.00e+02    4.51e+02    6.26e+01    1.95e+02
Gm:       3.08e-04    6.61e-02    6.63e-02    5.99e+01    8.88e-01
Rpi:      1.99e+05    6.40e+03    6.69e+03    9.30e-01    2.13e+02
Rx:       1.00e+00    1.00e+00    1.00e+00    1.78e+00    1.00e+01
Ro:       5.36e+02    5.08e+03    1.36e+04    7.80e+00    4.24e+03
Cbe:      3.02e-11    6.72e-11    6.72e-11    3.39e-07    8.24e-10
Cbc:      9.85e-12    8.92e-12    3.64e-12    2.95e-10    1.34e-11
Cjs:      0.00e+00    0.00e+00    0.00e+00    0.00e+00    0.00e+00
BetaAC:   6.15e+01    4.23e+02    4.43e+02    5.57e+01    1.89e+02
Cbx:      5.82e-12    5.26e-12    2.15e-12    7.29e-11    0.00e+00
Ft:       1.07e+06    1.29e+08    1.45e+08    2.81e+07    1.69e+08

Name:       q4          q1
Model:    bc547c      bc547c
Ib:       3.41e-06    3.74e-06
Ic:       1.66e-03    1.78e-03
Vbe:      6.33e-01    6.36e-01
Vbc:     -4.07e+00   -3.06e+00
Vce:      4.71e+00    3.70e+00
BetaDC:   4.86e+02    4.77e+02
Gm:       6.26e-02    6.75e-02
Rpi:      7.68e+03    6.99e+03
Rx:       1.00e+00    1.00e+00
Ro:       3.42e+04    3.12e+04
Cbe:      6.20e-11    6.44e-11
Cbc:      1.17e-12    1.26e-12
Cjs:      0.00e+00    0.00e+00
BetaAC:   4.81e+02    4.71e+02
Cbx:      7.17e-13    7.73e-13
Ft:       1.56e+08    1.62e+08



vo1rc: v(vo)=5.01557 at 500
vo2rc: v(vo)=5.00933 at 3.33
io1rc: i(rl)=0.0100311 at 500
io2rc: i(rl)=1.5043 at 3.33
regcar: (-(vo2rc - vo1rc) / (io2rc - io1rc) )=0.00417364


Date: Wed Mar 26 08:36:37 2025
Total elapsed time: 1.240 seconds.

tnom = 27
temp = 27
method = trap
totiter = 10
traniter = 0
tranpoints = 0
accept = 0
rejected = 0
matrix size = 34
fillins = 28
solver = Normal
Matrix Compiler1: 4.14 KB object code size
Matrix Compiler2: 3.52 KB object code size
