Circuit: * C:\Users\usuario\137\Facultad\circuitos 2\TDCE\Etapa lineal.asc

Direct Newton iteration for .op point succeeded.
Semiconductor Device Operating Points:
                        --- Bipolar Transistors ---
Name:       q8          q5          q6          q3          q11
Model:    bc557c      bc557b      bc557b      2sb688      bc547b
Ib:      -3.83e-04   -7.59e-13    4.63e-12   -1.69e-02    4.84e-04
Ic:      -8.68e-02   -1.32e-11   -2.19e-11   -1.26e+00    8.65e-02
Vbe:     -8.03e-01   -1.53e-01   -1.53e-01   -7.87e-01    8.08e-01
Vbc:      1.62e+00    0.00e+00    5.10e+00    6.80e+00   -1.83e+00
Vce:     -2.42e+00   -1.53e-01   -5.25e+00   -7.59e+00    2.63e+00
BetaDC:   2.27e+02    1.75e+01   -4.73e+00    7.48e+01    1.79e+02
Gm:       2.15e+00    5.09e-10    6.35e-10    4.87e+01    2.38e+00
Rpi:      6.83e+01    5.81e+10    5.81e+10    1.53e+00    5.39e+01
Rx:       1.00e+00    1.00e+00    1.00e+00    0.00e+00    1.00e+00
Ro:       2.84e+02    4.76e+11    1.57e+12    8.48e+01    7.29e+02
Cbe:      3.77e-09    1.37e-11    1.37e-11    9.37e-08    7.88e-09
Cbc:      2.72e-12    6.79e-12    1.67e-12    2.24e-12    1.40e-12
Cjs:      0.00e+00    0.00e+00    0.00e+00    2.00e-12    0.00e+00
BetaAC:   1.47e+02    2.96e+01    3.69e+01    7.47e+01    1.29e+02
Cbx:      1.60e-12    4.01e-12    9.89e-13    0.00e+00    8.63e-13
Ft:       9.08e+07    3.31e+00    6.17e+00    8.27e+07    4.81e+07

Name:       q2          q10         q9          q7          q4
Model:    bc547b      bc547c      bc547c      bc547c      bc547c
Ib:       6.00e-05    8.46e-07    8.46e-07    4.74e-07   -1.03e-11
Ic:       1.69e-02    3.84e-04    3.84e-04    2.22e-04    9.38e-12
Vbe:      7.20e-01    5.97e-01    5.97e-01    5.81e-01   -9.65e-01
Vbc:     -6.08e+00    0.00e+00    1.63e-02   -1.65e+00   -9.35e+00
Vce:      6.80e+00    5.97e-01    5.80e-01    2.23e+00    8.38e+00
BetaDC:   2.81e+02    4.54e+02    4.53e+02    4.68e+02   -9.07e-01
Gm:       5.85e-01    1.46e-02    1.46e-02    8.47e-03    1.93e-28
Rpi:      4.35e+02    3.10e+04    3.09e+04    5.53e+04    1.00e+12
Rx:       1.00e+00    1.00e+00    1.00e+00    1.00e+00    1.00e+00
Ro:       4.01e+03    1.37e+05    1.37e+05    2.45e+05    8.34e+30
Cbe:      3.47e-10    3.72e-11    3.72e-11    3.34e-11    8.75e-12
Cbc:      1.01e-12    2.74e-12    2.80e-12    1.47e-12    9.33e-13
Cjs:      0.00e+00    0.00e+00    0.00e+00    0.00e+00    0.00e+00
BetaAC:   2.54e+02    4.53e+02    4.53e+02    4.68e+02    1.93e-16
Cbx:      6.24e-13    1.68e-12    1.72e-12    9.05e-13    5.74e-13
Ft:       2.67e+08    5.59e+07    5.58e+07    3.77e+07    1.55e-02

Name:       q1
Model:    bc547c
Ib:       8.03e-07
Ic:       3.83e-04
Vbe:      5.95e-01
Vbc:     -2.69e+00
Vce:      3.28e+00
BetaDC:   4.77e+02
Gm:       1.46e-02
Rpi:      3.26e+04
Rx:       1.00e+00
Ro:       1.44e+05
Cbe:      3.71e-11
Cbc:      1.30e-12
Cjs:      0.00e+00
BetaAC:   4.76e+02
Cbx:      8.00e-13
Ft:       5.93e+07



Date: Mon Mar 31 11:18:34 2025
Total elapsed time: 7.009 seconds.

tnom = 27
temp = 27
method = trap
totiter = 1618
traniter = 0
tranpoints = 0
accept = 0
rejected = 0
matrix size = 50
fillins = 59
solver = Normal
Matrix Compiler1: 6.49 KB object code size
Matrix Compiler2: 5.56 KB object code size  3.8/4.5/[1.8]

